
Circuit: * spicenetlist

Doing analysis at TEMP = 0.000000 and TNOM = 27.000000

Note: Starting dynamic gmin stepping
Trying gmin =   1.0000E-03 Note: One successful gmin step
Trying gmin =   1.0000E-04 Note: One successful gmin step
Trying gmin =   1.0000E-05 Note: One successful gmin step
Trying gmin =   1.0000E-06 Note: One successful gmin step
Trying gmin =   1.0000E-07 Note: One successful gmin step
Trying gmin =   1.0000E-08 Note: One successful gmin step
Trying gmin =   1.0000E-09 Note: One successful gmin step
Trying gmin =   1.0000E-10 Note: One successful gmin step
Trying gmin =   1.0000E-11 Note: One successful gmin step
Trying gmin =   1.0000E-12 Note: One successful gmin step
Trying gmin =   1.0000E-12 Note: One successful gmin step
Note: Dynamic gmin stepping completed


No. of Data Rows : 501
                                 * spicenetlist
                                 DC transfer characteristic  Fri Jun 15 12:11:36  2018
--------------------------------------------------------------------------------
Index   i-sweep         v(out)          v(in)           v_vcur_1#branch 
--------------------------------------------------------------------------------
0	0.000000e+00	2.078587e+01	2.483168e+01	8.163267e-12	
1	6.000000e-03	2.059183e+01	2.459284e+01	4.338940e-09	
2	1.200000e-02	2.054983e+01	2.436242e+01	2.368535e-04	
3	1.800000e-02	2.054441e+01	2.429898e+01	4.616237e-03	
4	2.400000e-02	2.054173e+01	2.428131e+01	1.013013e-02	
5	3.000000e-02	2.054016e+01	2.427107e+01	1.582795e-02	
6	3.600000e-02	2.053897e+01	2.426342e+01	2.158992e-02	
7	4.200000e-02	2.053805e+01	2.425752e+01	2.739545e-02	
8	4.800000e-02	2.053727e+01	2.425254e+01	3.322357e-02	
9	5.400000e-02	2.053658e+01	2.424816e+01	3.906661e-02	
10	6.000000e-02	2.053596e+01	2.424425e+01	4.492107e-02	
11	6.600000e-02	2.053539e+01	2.424069e+01	5.078428e-02	
12	7.200000e-02	2.053486e+01	2.423740e+01	5.665435e-02	
13	7.800000e-02	2.053437e+01	2.423435e+01	6.252994e-02	
14	8.400000e-02	2.053390e+01	2.423148e+01	6.841007e-02	
15	9.000000e-02	2.053346e+01	2.422876e+01	7.429397e-02	
16	9.600000e-02	2.053304e+01	2.422617e+01	8.018108e-02	
17	1.020000e-01	2.053264e+01	2.422370e+01	8.607095e-02	
18	1.080000e-01	2.053225e+01	2.422132e+01	9.196319e-02	
19	1.140000e-01	2.053187e+01	2.421903e+01	9.785752e-02	
20	1.200000e-01	2.053150e+01	2.421682e+01	1.037537e-01	
21	1.260000e-01	2.053115e+01	2.421468e+01	1.096515e-01	
22	1.320000e-01	2.053080e+01	2.421259e+01	1.155507e-01	
23	1.380000e-01	2.053047e+01	2.421056e+01	1.214513e-01	
24	1.440000e-01	2.053014e+01	2.420858e+01	1.273530e-01	
25	1.500000e-01	2.052981e+01	2.420665e+01	1.332558e-01	
26	1.560000e-01	2.052950e+01	2.420475e+01	1.391595e-01	
27	1.620000e-01	2.052919e+01	2.420289e+01	1.450642e-01	
28	1.680000e-01	2.052888e+01	2.420107e+01	1.509696e-01	
29	1.740000e-01	2.052858e+01	2.419928e+01	1.568758e-01	
30	1.800000e-01	2.052829e+01	2.419752e+01	1.627827e-01	
31	1.860000e-01	2.052800e+01	2.419579e+01	1.686902e-01	
32	1.920000e-01	2.052771e+01	2.419408e+01	1.745983e-01	
33	1.980000e-01	2.052743e+01	2.419240e+01	1.805070e-01	
34	2.040000e-01	2.052715e+01	2.419074e+01	1.864161e-01	
35	2.100000e-01	2.052687e+01	2.418910e+01	1.923257e-01	
36	2.160000e-01	2.052660e+01	2.418748e+01	1.982358e-01	
37	2.220000e-01	2.052633e+01	2.418588e+01	2.041463e-01	
38	2.280000e-01	2.052606e+01	2.418429e+01	2.100572e-01	
39	2.340000e-01	2.052579e+01	2.418273e+01	2.159684e-01	
40	2.400000e-01	2.052553e+01	2.418118e+01	2.218799e-01	
41	2.460000e-01	2.052527e+01	2.417964e+01	2.277918e-01	
42	2.520000e-01	2.052501e+01	2.417812e+01	2.337040e-01	
43	2.580000e-01	2.052476e+01	2.417661e+01	2.396165e-01	
44	2.640000e-01	2.052451e+01	2.417511e+01	2.455292e-01	
45	2.700000e-01	2.052425e+01	2.417363e+01	2.514422e-01	
46	2.760000e-01	2.052400e+01	2.417216e+01	2.573554e-01	
47	2.820000e-01	2.052376e+01	2.417069e+01	2.632689e-01	
48	2.880000e-01	2.052351e+01	2.416924e+01	2.691825e-01	
49	2.940000e-01	2.052327e+01	2.416780e+01	2.750964e-01	
50	3.000000e-01	2.052302e+01	2.416637e+01	2.810104e-01	
51	3.060000e-01	2.052278e+01	2.416495e+01	2.869246e-01	
52	3.120000e-01	2.052254e+01	2.416354e+01	2.928390e-01	
53	3.180000e-01	2.052230e+01	2.416213e+01	2.987536e-01	
54	3.240000e-01	2.052206e+01	2.416073e+01	3.046683e-01	

Index   i-sweep         v(out)          v(in)           v_vcur_1#branch 
--------------------------------------------------------------------------------
55	3.300000e-01	2.052183e+01	2.415935e+01	3.105832e-01	
56	3.360000e-01	2.052159e+01	2.415797e+01	3.164981e-01	
57	3.420000e-01	2.052136e+01	2.415659e+01	3.224133e-01	
58	3.480000e-01	2.052113e+01	2.415523e+01	3.283285e-01	
59	3.540000e-01	2.052090e+01	2.415387e+01	3.342439e-01	
60	3.600000e-01	2.052067e+01	2.415251e+01	3.401594e-01	
61	3.660000e-01	2.052044e+01	2.415117e+01	3.460749e-01	
62	3.720000e-01	2.052021e+01	2.414982e+01	3.519906e-01	
63	3.780000e-01	2.051998e+01	2.414849e+01	3.579064e-01	
64	3.840000e-01	2.051975e+01	2.414716e+01	3.638223e-01	
65	3.900000e-01	2.051953e+01	2.414584e+01	3.697383e-01	
66	3.960000e-01	2.051930e+01	2.414452e+01	3.756543e-01	
67	4.020000e-01	2.051908e+01	2.414321e+01	3.815704e-01	
68	4.080000e-01	2.051886e+01	2.414190e+01	3.874866e-01	
69	4.140000e-01	2.051864e+01	2.414059e+01	3.934029e-01	
70	4.200000e-01	2.051842e+01	2.413930e+01	3.993192e-01	
71	4.260000e-01	2.051819e+01	2.413800e+01	4.052356e-01	
72	4.320000e-01	2.051798e+01	2.413671e+01	4.111521e-01	
73	4.380000e-01	2.051776e+01	2.413543e+01	4.170686e-01	
74	4.440000e-01	2.051754e+01	2.413415e+01	4.229851e-01	
75	4.500000e-01	2.051732e+01	2.413287e+01	4.289018e-01	
76	4.560000e-01	2.051710e+01	2.413159e+01	4.348184e-01	
77	4.620000e-01	2.051689e+01	2.413033e+01	4.407351e-01	
78	4.680000e-01	2.051667e+01	2.412906e+01	4.466519e-01	
79	4.740000e-01	2.051646e+01	2.412780e+01	4.525687e-01	
80	4.800000e-01	2.051624e+01	2.412654e+01	4.584855e-01	
81	4.860000e-01	2.051603e+01	2.412529e+01	4.644024e-01	
82	4.920000e-01	2.051582e+01	2.412403e+01	4.703193e-01	
83	4.980000e-01	2.051560e+01	2.412279e+01	4.762362e-01	
84	5.040000e-01	2.051539e+01	2.412154e+01	4.821532e-01	
85	5.100000e-01	2.051518e+01	2.412030e+01	4.880702e-01	
86	5.160000e-01	2.051497e+01	2.411906e+01	4.939872e-01	
87	5.220000e-01	2.051476e+01	2.411782e+01	4.999042e-01	
88	5.280000e-01	2.051455e+01	2.411659e+01	5.058213e-01	
89	5.340000e-01	2.051434e+01	2.411536e+01	5.117384e-01	
90	5.400000e-01	2.051413e+01	2.411413e+01	5.176555e-01	
91	5.460000e-01	2.051392e+01	2.411291e+01	5.235726e-01	
92	5.520000e-01	2.051371e+01	2.411169e+01	5.294897e-01	
93	5.580000e-01	2.051350e+01	2.411047e+01	5.354069e-01	
94	5.640000e-01	2.051330e+01	2.410925e+01	5.413241e-01	
95	5.700000e-01	2.051309e+01	2.410804e+01	5.472412e-01	
96	5.760000e-01	2.051288e+01	2.410682e+01	5.531584e-01	
97	5.820000e-01	2.051268e+01	2.410561e+01	5.590756e-01	
98	5.880000e-01	2.051247e+01	2.410441e+01	5.649928e-01	
99	5.940000e-01	2.051227e+01	2.410320e+01	5.709100e-01	
100	6.000000e-01	2.051206e+01	2.410200e+01	5.768272e-01	
101	6.060000e-01	2.051186e+01	2.410080e+01	5.827444e-01	
102	6.120000e-01	2.051165e+01	2.409960e+01	5.886616e-01	
103	6.180000e-01	2.051145e+01	2.409840e+01	5.945789e-01	
104	6.240000e-01	2.051125e+01	2.409721e+01	6.004961e-01	
105	6.300000e-01	2.051104e+01	2.409602e+01	6.064133e-01	
106	6.360000e-01	2.051084e+01	2.409483e+01	6.123305e-01	
107	6.420000e-01	2.051064e+01	2.409364e+01	6.182477e-01	
108	6.480000e-01	2.051043e+01	2.409245e+01	6.241649e-01	
109	6.540000e-01	2.051023e+01	2.409126e+01	6.300821e-01	
110	6.600000e-01	2.051003e+01	2.409008e+01	6.359993e-01	
111	6.660000e-01	2.050983e+01	2.408890e+01	6.419165e-01	
112	6.720000e-01	2.050963e+01	2.408772e+01	6.478337e-01	

Index   i-sweep         v(out)          v(in)           v_vcur_1#branch 
--------------------------------------------------------------------------------
113	6.780000e-01	2.050943e+01	2.408654e+01	6.537509e-01	
114	6.840000e-01	2.050923e+01	2.408537e+01	6.596681e-01	
115	6.900000e-01	2.050903e+01	2.408419e+01	6.655852e-01	
116	6.960000e-01	2.050883e+01	2.408302e+01	6.715024e-01	
117	7.020000e-01	2.050863e+01	2.408185e+01	6.774195e-01	
118	7.080000e-01	2.050843e+01	2.408068e+01	6.833367e-01	
119	7.140000e-01	2.050823e+01	2.407951e+01	6.892538e-01	
120	7.200000e-01	2.050803e+01	2.407834e+01	6.951709e-01	
121	7.260000e-01	2.050783e+01	2.407718e+01	7.010880e-01	
122	7.320000e-01	2.050764e+01	2.407601e+01	7.070051e-01	
123	7.380000e-01	2.050744e+01	2.407485e+01	7.129221e-01	
124	7.440000e-01	2.050724e+01	2.407369e+01	7.188392e-01	
125	7.500000e-01	2.050704e+01	2.407253e+01	7.247562e-01	
126	7.560000e-01	2.050684e+01	2.407137e+01	7.306732e-01	
127	7.620000e-01	2.050665e+01	2.407022e+01	7.365902e-01	
128	7.680000e-01	2.050645e+01	2.406906e+01	7.425072e-01	
129	7.740000e-01	2.050625e+01	2.406791e+01	7.484242e-01	
130	7.800000e-01	2.050606e+01	2.406675e+01	7.543411e-01	
131	7.860000e-01	2.050586e+01	2.406560e+01	7.602580e-01	
132	7.920000e-01	2.050567e+01	2.406445e+01	7.661749e-01	
133	7.980000e-01	2.050547e+01	2.406330e+01	7.720918e-01	
134	8.040000e-01	2.050527e+01	2.406215e+01	7.780087e-01	
135	8.100000e-01	2.050508e+01	2.406101e+01	7.839255e-01	
136	8.160000e-01	2.050488e+01	2.405986e+01	7.898424e-01	
137	8.220000e-01	2.050469e+01	2.405872e+01	7.957592e-01	
138	8.280000e-01	2.050449e+01	2.405757e+01	8.016760e-01	
139	8.340000e-01	2.050430e+01	2.405643e+01	8.075927e-01	
140	8.400000e-01	2.050410e+01	2.405529e+01	8.135094e-01	
141	8.460000e-01	2.050391e+01	2.405415e+01	8.194262e-01	
142	8.520000e-01	2.050372e+01	2.405301e+01	8.253428e-01	
143	8.580000e-01	2.050352e+01	2.405187e+01	8.312595e-01	
144	8.640000e-01	2.050333e+01	2.405073e+01	8.371761e-01	
145	8.700000e-01	2.050313e+01	2.404960e+01	8.430927e-01	
146	8.760000e-01	2.050294e+01	2.404846e+01	8.490093e-01	
147	8.820000e-01	2.050275e+01	2.404733e+01	8.549259e-01	
148	8.880000e-01	2.050255e+01	2.404620e+01	8.608424e-01	
149	8.940000e-01	2.050236e+01	2.404506e+01	8.667589e-01	
150	9.000000e-01	2.050217e+01	2.404393e+01	8.726754e-01	
151	9.060000e-01	2.050198e+01	2.404280e+01	8.785919e-01	
152	9.120000e-01	2.050178e+01	2.404167e+01	8.845083e-01	
153	9.180000e-01	2.050159e+01	2.404054e+01	8.904247e-01	
154	9.240000e-01	2.050140e+01	2.403941e+01	8.963411e-01	
155	9.300000e-01	2.050121e+01	2.403829e+01	9.022574e-01	
156	9.360000e-01	2.050101e+01	2.403716e+01	9.081737e-01	
157	9.420000e-01	2.050082e+01	2.403604e+01	9.140900e-01	
158	9.480000e-01	2.050063e+01	2.403491e+01	9.200062e-01	
159	9.540000e-01	2.050044e+01	2.403379e+01	9.259225e-01	
160	9.600000e-01	2.050025e+01	2.403267e+01	9.318387e-01	
161	9.660000e-01	2.050006e+01	2.403154e+01	9.377548e-01	
162	9.720000e-01	2.049986e+01	2.403042e+01	9.436710e-01	
163	9.780000e-01	2.049967e+01	2.402930e+01	9.495871e-01	
164	9.840000e-01	2.049948e+01	2.402818e+01	9.555031e-01	
165	9.900000e-01	2.049929e+01	2.402706e+01	9.614192e-01	
166	9.960000e-01	2.049910e+01	2.402595e+01	9.673352e-01	
167	1.002000e+00	2.049891e+01	2.402483e+01	9.732512e-01	
168	1.008000e+00	2.049872e+01	2.402371e+01	9.791671e-01	
169	1.014000e+00	2.049853e+01	2.402260e+01	9.850830e-01	
170	1.020000e+00	2.049834e+01	2.402148e+01	9.909989e-01	

Index   i-sweep         v(out)          v(in)           v_vcur_1#branch 
--------------------------------------------------------------------------------
171	1.026000e+00	2.049815e+01	2.402037e+01	9.969147e-01	
172	1.032000e+00	2.049796e+01	2.401925e+01	1.002831e+00	
173	1.038000e+00	2.049777e+01	2.401814e+01	1.008746e+00	
174	1.044000e+00	2.049758e+01	2.401703e+01	1.014662e+00	
175	1.050000e+00	2.049739e+01	2.401592e+01	1.020578e+00	
176	1.056000e+00	2.049720e+01	2.401480e+01	1.026493e+00	
177	1.062000e+00	2.049701e+01	2.401369e+01	1.032409e+00	
178	1.068000e+00	2.049682e+01	2.401258e+01	1.038325e+00	
179	1.074000e+00	2.049663e+01	2.401148e+01	1.044240e+00	
180	1.080000e+00	2.049644e+01	2.401037e+01	1.050156e+00	
181	1.086000e+00	2.049625e+01	2.400926e+01	1.056071e+00	
182	1.092000e+00	2.049606e+01	2.400815e+01	1.061987e+00	
183	1.098000e+00	2.049587e+01	2.400704e+01	1.067902e+00	
184	1.104000e+00	2.049568e+01	2.400594e+01	1.073818e+00	
185	1.110000e+00	2.049550e+01	2.400483e+01	1.079733e+00	
186	1.116000e+00	2.049531e+01	2.400373e+01	1.085648e+00	
187	1.122000e+00	2.049512e+01	2.400262e+01	1.091564e+00	
188	1.128000e+00	2.049493e+01	2.400152e+01	1.097479e+00	
189	1.134000e+00	2.049474e+01	2.400042e+01	1.103394e+00	
190	1.140000e+00	2.049455e+01	2.399931e+01	1.109309e+00	
191	1.146000e+00	2.049436e+01	2.399821e+01	1.115224e+00	
192	1.152000e+00	2.049417e+01	2.399711e+01	1.121140e+00	
193	1.158000e+00	2.049399e+01	2.399601e+01	1.127055e+00	
194	1.164000e+00	2.049380e+01	2.399491e+01	1.132970e+00	
195	1.170000e+00	2.049361e+01	2.399381e+01	1.138885e+00	
196	1.176000e+00	2.049342e+01	2.399271e+01	1.144800e+00	
197	1.182000e+00	2.049323e+01	2.399161e+01	1.150715e+00	
198	1.188000e+00	2.049305e+01	2.399051e+01	1.156629e+00	
199	1.194000e+00	2.049286e+01	2.398942e+01	1.162544e+00	
200	1.200000e+00	2.049267e+01	2.398832e+01	1.168459e+00	
201	1.206000e+00	2.049248e+01	2.398722e+01	1.174374e+00	
202	1.212000e+00	2.049229e+01	2.398612e+01	1.180289e+00	
203	1.218000e+00	2.049211e+01	2.398503e+01	1.186203e+00	
204	1.224000e+00	2.049192e+01	2.398393e+01	1.192118e+00	
205	1.230000e+00	2.049173e+01	2.398284e+01	1.198033e+00	
206	1.236000e+00	2.049154e+01	2.398174e+01	1.203947e+00	
207	1.242000e+00	2.049136e+01	2.398065e+01	1.209862e+00	
208	1.248000e+00	2.049117e+01	2.397956e+01	1.215776e+00	
209	1.254000e+00	2.049098e+01	2.397846e+01	1.221691e+00	
210	1.260000e+00	2.049079e+01	2.397737e+01	1.227605e+00	
211	1.266000e+00	2.049061e+01	2.397628e+01	1.233520e+00	
212	1.272000e+00	2.049042e+01	2.397519e+01	1.239434e+00	
213	1.278000e+00	2.049023e+01	2.397409e+01	1.245348e+00	
214	1.284000e+00	2.049005e+01	2.397300e+01	1.251262e+00	
215	1.290000e+00	2.048986e+01	2.397191e+01	1.257177e+00	
216	1.296000e+00	2.048967e+01	2.397082e+01	1.263091e+00	
217	1.302000e+00	2.048948e+01	2.396973e+01	1.269005e+00	
218	1.308000e+00	2.048930e+01	2.396864e+01	1.274919e+00	
219	1.314000e+00	2.048911e+01	2.396756e+01	1.280833e+00	
220	1.320000e+00	2.048892e+01	2.396647e+01	1.286747e+00	
221	1.326000e+00	2.048874e+01	2.396538e+01	1.292661e+00	
222	1.332000e+00	2.048855e+01	2.396429e+01	1.298575e+00	
223	1.338000e+00	2.048836e+01	2.396320e+01	1.304489e+00	
224	1.344000e+00	2.048818e+01	2.396212e+01	1.310403e+00	
225	1.350000e+00	2.048799e+01	2.396103e+01	1.316317e+00	
226	1.356000e+00	2.048780e+01	2.395994e+01	1.322231e+00	
227	1.362000e+00	2.048762e+01	2.395886e+01	1.328144e+00	
228	1.368000e+00	2.048743e+01	2.395777e+01	1.334058e+00	

Index   i-sweep         v(out)          v(in)           v_vcur_1#branch 
--------------------------------------------------------------------------------
229	1.374000e+00	2.048724e+01	2.395669e+01	1.339972e+00	
230	1.380000e+00	2.048706e+01	2.395560e+01	1.345885e+00	
231	1.386000e+00	2.048687e+01	2.395452e+01	1.351799e+00	
232	1.392000e+00	2.048668e+01	2.395343e+01	1.357712e+00	
233	1.398000e+00	2.048650e+01	2.395235e+01	1.363626e+00	
234	1.404000e+00	2.048631e+01	2.395127e+01	1.369539e+00	
235	1.410000e+00	2.048612e+01	2.395018e+01	1.375453e+00	
236	1.416000e+00	2.048594e+01	2.394910e+01	1.381366e+00	
237	1.422000e+00	2.048575e+01	2.394802e+01	1.387279e+00	
238	1.428000e+00	2.048557e+01	2.394694e+01	1.393193e+00	
239	1.434000e+00	2.048538e+01	2.394586e+01	1.399106e+00	
240	1.440000e+00	2.048519e+01	2.394478e+01	1.405019e+00	
241	1.446000e+00	2.048501e+01	2.394369e+01	1.410932e+00	
242	1.452000e+00	2.048482e+01	2.394261e+01	1.416845e+00	
243	1.458000e+00	2.048463e+01	2.394153e+01	1.422759e+00	
244	1.464000e+00	2.048445e+01	2.394045e+01	1.428672e+00	
245	1.470000e+00	2.048426e+01	2.393937e+01	1.434585e+00	
246	1.476000e+00	2.048408e+01	2.393829e+01	1.440497e+00	
247	1.482000e+00	2.048389e+01	2.393722e+01	1.446410e+00	
248	1.488000e+00	2.048370e+01	2.393614e+01	1.452323e+00	
249	1.494000e+00	2.048352e+01	2.393506e+01	1.458236e+00	
250	1.500000e+00	2.048333e+01	2.393398e+01	1.464149e+00	
251	1.506000e+00	2.048314e+01	2.393290e+01	1.470062e+00	
252	1.512000e+00	2.048296e+01	2.393182e+01	1.475974e+00	
253	1.518000e+00	2.048277e+01	2.393075e+01	1.481887e+00	
254	1.524000e+00	2.048259e+01	2.392967e+01	1.487799e+00	
255	1.530000e+00	2.048240e+01	2.392859e+01	1.493712e+00	
256	1.536000e+00	2.048221e+01	2.392752e+01	1.499625e+00	
257	1.542000e+00	2.048203e+01	2.392644e+01	1.505537e+00	
258	1.548000e+00	2.048184e+01	2.392537e+01	1.511449e+00	
259	1.554000e+00	2.048166e+01	2.392429e+01	1.517362e+00	
260	1.560000e+00	2.048147e+01	2.392321e+01	1.523274e+00	
261	1.566000e+00	2.048128e+01	2.392214e+01	1.529186e+00	
262	1.572000e+00	2.048110e+01	2.392106e+01	1.535099e+00	
263	1.578000e+00	2.048091e+01	2.391999e+01	1.541011e+00	
264	1.584000e+00	2.048073e+01	2.391892e+01	1.546923e+00	
265	1.590000e+00	2.048054e+01	2.391784e+01	1.552835e+00	
266	1.596000e+00	2.048036e+01	2.391677e+01	1.558747e+00	
267	1.602000e+00	2.048017e+01	2.391569e+01	1.564659e+00	
268	1.608000e+00	2.047998e+01	2.391462e+01	1.570571e+00	
269	1.614000e+00	2.047980e+01	2.391355e+01	1.576483e+00	
270	1.620000e+00	2.047961e+01	2.391248e+01	1.582395e+00	
271	1.626000e+00	2.047943e+01	2.391140e+01	1.588307e+00	
272	1.632000e+00	2.047924e+01	2.391033e+01	1.594219e+00	
273	1.638000e+00	2.047905e+01	2.390926e+01	1.600131e+00	
274	1.644000e+00	2.047887e+01	2.390819e+01	1.606042e+00	
275	1.650000e+00	2.047868e+01	2.390712e+01	1.611954e+00	
276	1.656000e+00	2.047850e+01	2.390604e+01	1.617866e+00	
277	1.662000e+00	2.047831e+01	2.390497e+01	1.623777e+00	
278	1.668000e+00	2.047812e+01	2.390390e+01	1.629689e+00	
279	1.674000e+00	2.047794e+01	2.390283e+01	1.635600e+00	
280	1.680000e+00	2.047775e+01	2.390176e+01	1.641512e+00	
281	1.686000e+00	2.047757e+01	2.390069e+01	1.647423e+00	
282	1.692000e+00	2.047738e+01	2.389962e+01	1.653334e+00	
283	1.698000e+00	2.047719e+01	2.389855e+01	1.659246e+00	
284	1.704000e+00	2.047701e+01	2.389748e+01	1.665157e+00	
285	1.710000e+00	2.047682e+01	2.389641e+01	1.671068e+00	
286	1.716000e+00	2.047664e+01	2.389534e+01	1.676979e+00	

Index   i-sweep         v(out)          v(in)           v_vcur_1#branch 
--------------------------------------------------------------------------------
287	1.722000e+00	2.047645e+01	2.389428e+01	1.682891e+00	
288	1.728000e+00	2.047626e+01	2.389321e+01	1.688802e+00	
289	1.734000e+00	2.047608e+01	2.389214e+01	1.694713e+00	
290	1.740000e+00	2.047589e+01	2.389107e+01	1.700624e+00	
291	1.746000e+00	2.047571e+01	2.389000e+01	1.706535e+00	
292	1.752000e+00	2.047552e+01	2.388893e+01	1.712445e+00	
293	1.758000e+00	2.047533e+01	2.388787e+01	1.718356e+00	
294	1.764000e+00	2.047515e+01	2.388680e+01	1.724267e+00	
295	1.770000e+00	2.047496e+01	2.388573e+01	1.730178e+00	
296	1.776000e+00	2.047478e+01	2.388467e+01	1.736089e+00	
297	1.782000e+00	2.047459e+01	2.388360e+01	1.741999e+00	
298	1.788000e+00	2.047440e+01	2.388253e+01	1.747910e+00	
299	1.794000e+00	2.047422e+01	2.388147e+01	1.753821e+00	
300	1.800000e+00	2.047403e+01	2.388040e+01	1.759731e+00	
301	1.806000e+00	2.047384e+01	2.387933e+01	1.765642e+00	
302	1.812000e+00	2.047366e+01	2.387827e+01	1.771552e+00	
303	1.818000e+00	2.047347e+01	2.387720e+01	1.777462e+00	
304	1.824000e+00	2.047329e+01	2.387614e+01	1.783373e+00	
305	1.830000e+00	2.047310e+01	2.387507e+01	1.789283e+00	
306	1.836000e+00	2.047291e+01	2.387401e+01	1.795193e+00	
307	1.842000e+00	2.047273e+01	2.387294e+01	1.801104e+00	
308	1.848000e+00	2.047254e+01	2.387188e+01	1.807014e+00	
309	1.854000e+00	2.047235e+01	2.387081e+01	1.812924e+00	
310	1.860000e+00	2.047217e+01	2.386975e+01	1.818834e+00	
311	1.866000e+00	2.047198e+01	2.386868e+01	1.824744e+00	
312	1.872000e+00	2.047179e+01	2.386762e+01	1.830654e+00	
313	1.878000e+00	2.047161e+01	2.386656e+01	1.836564e+00	
314	1.884000e+00	2.047142e+01	2.386549e+01	1.842474e+00	
315	1.890000e+00	2.047123e+01	2.386443e+01	1.848384e+00	
316	1.896000e+00	2.047105e+01	2.386337e+01	1.854293e+00	
317	1.902000e+00	2.047086e+01	2.386230e+01	1.860203e+00	
